
  can0  RX - -  083   [8]  05 CC 00 00 00 CC 13 F1
  can0  RX - -  083   [8]  05 CC 00 00 00 CC 13 F1
  can0  RX - -  083   [8]  05 CC 00 00 00 CC 13 F1
  can0  RX - -  083   [8]  05 CC 00 00 00 CC 13 F1
  can0  RX - -  083   [8]  05 CC 00 00 00 CC 13 F1
  can0  RX - -  083   [8]  05 CC 00 00 00 08 DE 0B
  can0  RX - -  083   [8]  05 CC 00 00 00 2D 08 03
  can0  RX - -  083   [8]  05 CC 00 00 00 CC 13 F1
  can0  RX - -  083   [8]  05 CC 00 00 00 CC 13 F1
  can0  RX - -  083   [8]  05 CC 00 00 00 CC 13 F1
  can0  RX - -  083   [8]  05 CC 00 00 00 CC 13 F1
  can0  RX - -  083   [8]  05 CC 00 00 00 CC 13 F1
  can0  RX - -  083   [8]  05 CC 00 00 00 CC 13 F1
  can0  RX - -  083   [8]  05 CC 00 00 00 CC 13 F1
  can0  RX - -  083   [8]  05 CC 00 00 00 CC 13 F1
  can0  RX - -  083   [8]  05 CC 00 00 00 CC 13 F1
  can0  RX - -  083   [8]  05 CC 00 00 00 DD DF 00
  can0  RX - -  083   [8]  05 CC 00 00 00 08 13 F1
  can0  RX - -  083   [8]  05 CC 00 00 00 08 13 F1
  can0  RX - -  083   [8]  05 CC 00 00 00 08 13 F1
  can0  RX - -  083   [8]  05 CC 00 00 00 08 13 F1
  can0  RX - -  083   [8]  05 CC 00 00 00 08 13 F1
  can0  RX - -  083   [8]  05 CC 00 00 00 08 13 F1
  can0  RX - -  083   [8]  05 CC 00 00 00 08 13 F1
  can0  RX - -  083   [8]  05 CC 00 00 00 00 00 00
  can0  RX - -  083   [8]  05 CC 00 00 00 00 13 F1
  can0  RX - -  083   [8]  05 CC 00 00 00 00 13 F1
  can0  RX - -  083   [8]  05 CC 00 00 00 00 13 F1
  can0  RX - -  083   [8]  05 CC 00 00 00 0B 3B 00
  can0  RX - -  083   [8]  05 CC 00 00 00 F1 13 F1
  can0  RX - -  083   [8]  05 CC 00 00 00 F1 13 F1
  can0  RX - -  083   [8]  05 CC 00 00 00 F1 13 F1
  can0  RX - -  083   [8]  05 CC 00 00 00 00 00 00
  can0  RX - -  083   [8]  05 CC 00 00 00 04 13 F1
  can0  RX - -  083   [8]  05 CC 00 00 00 04 13 F1
  can0  RX - -  083   [8]  05 CC 00 00 00 04 13 F1
  can0  RX - -  083   [8]  05 CC 00 00 00 DE 0B 3B
  can0  RX - -  083   [8]  05 CC 00 00 00 13 13 F1
  can0  RX - -  083   [8]  05 CC 00 00 00 13 13 F1
  can0  RX - -  083   [8]  05 CC 00 00 00 13 13 F1
  can0  RX - -  083   [8]  05 CC 00 00 00 13 13 F1
  can0  RX - -  083   [8]  05 CC 00 00 00 13 13 F1
  can0  RX - -  083   [8]  05 CC 00 00 00 13 13 F1
  can0  RX - -  083   [8]  05 CC 00 00 00 DD DF 00
  can0  RX - -  083   [8]  05 CC 00 00 00 00 00 00
  can0  RX - -  083   [8]  05 CC 00 00 00 00 13 F1
  can0  RX - -  083   [8]  05 CC 00 00 00 00 13 F1
  can0  RX - -  083   [8]  05 CC 00 00 00 08 DE 0B
  can0  RX - -  083   [8]  05 CC 00 00 00 00 00 00
  can0  RX - -  083   [8]  05 CC 00 00 00 04 13 F1
  can0  RX - -  083   [8]  05 CC 00 00 00 04 13 F1
  can0  RX - -  083   [8]  05 CC 00 00 00 00 00 00
  can0  RX - -  083   [8]  05 CC 00 00 00 10 13 F1
  can0  RX - -  083   [8]  05 CC 00 00 00 10 13 F1
  can0  RX - -  083   [8]  05 CC 00 00 00 3B 00 00
  can0  RX - -  083   [8]  05 CC 00 00 00 00 00 00
  can0  RX - -  083   [8]  05 CC 00 00 00 00 13 F1
  can0  RX - -  083   [8]  05 CC 00 00 00 00 13 F1
  can0  RX - -  083   [8]  05 CC 00 00 00 00 00 00
  can0  RX - -  083   [8]  05 CC 00 00 00 04 13 F1
  can0  RX - -  083   [8]  05 CC 00 00 00 04 13 F1
  can0  RX - -  083   [8]  05 CC 00 00 00 04 13 F1
  can0  RX - -  083   [8]  05 CC 00 00 00 0B 3B 00
  can0  RX - -  083   [8]  05 CC 00 00 00 F1 13 F1
  can0  RX - -  083   [8]  05 CC 00 00 00 F1 13 F1
  can0  RX - -  083   [8]  05 CC 00 00 00 F1 13 F1
  can0  RX - -  083   [8]  05 CC 00 00 00 00 00 00
  can0  RX - -  083   [8]  05 CC 00 00 00 00 13 F1
  can0  RX - -  083   [8]  05 CC 00 00 00 00 13 F1
  can0  RX - -  083   [8]  05 CC 00 00 00 0B 3B 00
  can0  RX - -  083   [8]  05 CC 00 00 00 F1 13 F1
  can0  RX - -  083   [8]  05 CC 00 00 00 F1 13 F1
  can0  RX - -  083   [8]  05 CC 00 00 00 F1 13 F1
  can0  RX - -  083   [8]  05 CC 00 00 00 00 00 00
  can0  RX - -  083   [8]  05 CC 00 00 00 10 13 F1
  can0  RX - -  083   [8]  05 CC 00 00 00 10 13 F1
  can0  RX - -  083   [8]  05 CC 00 00 00 10 13 F1
  can0  RX - -  083   [8]  05 CC 00 00 00 3B 00 00
  can0  RX - -  083   [8]  05 CC 00 00 00 2D 08 03
  can0  RX - -  083   [8]  05 CC 00 00 00 CC 13 F1
  can0  RX - -  083   [8]  05 CC 00 00 00 CC 13 F1
  can0  RX - -  083   [8]  05 CC 00 00 00 CC 13 F1
  can0  RX - -  083   [8]  05 CC 00 00 00 CC 13 F1
  can0  RX - -  083   [8]  05 CC 00 00 00 CC 13 F1
  can0  RX - -  083   [8]  05 CC 00 00 00 08 DE 0B
  can0  RX - -  083   [8]  05 CC 00 00 00 2D 08 03
  can0  RX - -  083   [8]  05 CC 00 00 00 CC 13 F1
  can0  RX - -  083   [8]  05 CC 00 00 00 CC 13 F1
  can0  RX - -  083   [8]  05 CC 00 00 00 DD DF 00
  can0  RX - -  083   [8]  05 CC 00 00 00 08 13 F1
  can0  RX - -  083   [8]  05 CC 00 00 00 08 13 F1
  can0  RX - -  083   [8]  05 CC 00 00 00 08 13 F1
  can0  RX - -  083   [8]  05 CC 00 00 00 08 13 F1
  can0  RX - -  083   [8]  05 CC 00 00 00 08 13 F1
  can0  RX - -  083   [8]  05 CC 00 00 00 08 13 F1
  can0  RX - -  083   [8]  05 CC 00 00 00 08 13 F1
  can0  RX - -  083   [8]  05 CC 00 00 00 00 00 00
  can0  RX - -  083   [8]  05 CC 00 00 00 10 13 F1
  can0  RX - -  083   [8]  05 CC 00 00 00 10 13 F1
  can0  RX - -  083   [8]  05 CC 00 00 00 10 13 F1
  can0  RX - -  083   [8]  05 CC 00 00 00 0B 3B 00
  can0  RX - -  083   [8]  05 CC 00 00 00 F1 13 F1
  can0  RX - -  083   [8]  05 CC 00 00 00 F1 13 F1
  can0  RX - -  083   [8]  05 CC 00 00 00 00 00 00
  can0  RX - -  083   [8]  05 CC 00 00 00 00 13 F1
  can0  RX - -  083   [8]  05 CC 00 00 00 00 13 F1
  can0  RX - -  083   [8]  05 CC 00 00 00 00 13 F1
  can0  RX - -  083   [8]  05 CC 00 00 00 0B 3B 00
  can0  RX - -  083   [8]  05 CC 00 00 00 F1 13 F1
  can0  RX - -  083   [8]  05 CC 00 00 00 F1 13 F1
  can0  RX - -  083   [8]  05 CC 00 00 00 F1 13 F1
  can0  RX - -  083   [8]  05 CC 00 00 00 00 00 00
  can0  RX - -  083   [8]  05 CC 00 00 00 04 13 F1
  can0  RX - -  083   [8]  05 CC 00 00 00 04 13 F1
  can0  RX - -  083   [8]  05 CC 00 00 00 04 13 F1
  can0  RX - -  083   [8]  05 CC 00 00 00 DE 0B 3B
  can0  RX - -  083   [8]  05 CC 00 00 00 13 F1 01
  can0  RX - -  083   [8]  05 CC 00 00 00 00 13 F1
  can0  RX - -  083   [8]  05 CC 00 00 00 00 13 F1
  can0  RX - -  083   [8]  05 CC 00 00 00 00 13 F1
  can0  RX - -  083   [8]  05 CC 00 00 00 00 13 F1
  can0  RX - -  083   [8]  05 CC 00 00 00 00 13 F1
  can0  RX - -  083   [8]  05 CC 00 00 00 DD DF 00
  can0  RX - -  083   [8]  05 CC 00 00 00 00 00 00
  can0  RX - -  083   [8]  05 CC 00 00 00 00 13 F1
  can0  RX - -  083   [8]  05 CC 00 00 00 00 13 F1
  can0  RX - -  083   [8]  05 CC 00 00 00 08 DE 0B
  can0  RX - -  083   [8]  05 CC 00 00 00 00 00 00
  can0  RX - -  083   [8]  05 CC 00 00 00 04 13 F1
  can0  RX - -  083   [8]  05 CC 00 00 00 04 13 F1
  can0  RX - -  083   [8]  05 CC 00 00 00 00 00 00
  can0  RX - -  083   [8]  05 CC 00 00 00 10 13 F1
  can0  RX - -  083   [8]  05 CC 00 00 00 10 13 F1
  can0  RX - -  083   [8]  05 CC 00 00 00 3B 00 00
  can0  RX - -  083   [8]  05 CC 00 00 00 00 00 00
  can0  RX - -  083   [8]  05 CC 00 00 00 00 13 F1
  can0  RX - -  083   [8]  05 CC 00 00 00 00 13 F1
  can0  RX - -  083   [8]  05 CC 00 00 00 00 00 00
  can0  RX - -  083   [8]  05 CC 00 00 00 04 13 F1
  can0  RX - -  083   [8]  05 CC 00 00 00 04 13 F1
  can0  RX - -  083   [8]  05 CC 00 00 00 04 13 F1
  can0  RX - -  083   [8]  05 CC 00 00 00 0B 3B 00
  can0  RX - -  083   [8]  05 CC 00 00 00 F1 13 F1
  can0  RX - -  083   [8]  05 CC 00 00 00 F1 13 F1
  can0  RX - -  083   [8]  05 CC 00 00 00 F1 13 F1
  can0  RX - -  083   [8]  05 CC 00 00 00 00 00 00
  can0  RX - -  083   [8]  05 CC 00 00 00 00 13 F1
  can0  RX - -  083   [8]  05 CC 00 00 00 00 13 F1
  can0  RX - -  083   [8]  05 CC 00 00 00 0B 3B 00
  can0  RX - -  083   [8]  05 CC 00 00 00 F1 13 F1
  can0  RX - -  083   [8]  05 CC 00 00 00 F1 13 F1
  can0  RX - -  083   [8]  05 CC 00 00 00 F1 13 F1
  can0  RX - -  083   [8]  05 CC 00 00 00 00 00 00
  can0  RX - -  083   [8]  05 CC 00 00 00 10 13 F1
  can0  RX - -  083   [8]  05 CC 00 00 00 10 13 F1
  can0  RX - -  083   [8]  05 CC 00 00 00 10 13 F1
  can0  RX - -  083   [8]  05 CC 00 00 00 3B 00 00
  can0  RX - -  083   [8]  05 CC 00 00 00 2D 08 03
  can0  RX - -  083   [8]  05 CC 00 00 00 CC 13 F1
  can0  RX - -  083   [8]  05 CC 00 00 00 CC 13 F1
  can0  RX - -  083   [8]  05 CC 00 00 00 CC 13 F1
  can0  RX - -  083   [8]  05 CC 00 00 00 CC 13 F1
  can0  RX - -  083   [8]  05 CC 00 00 00 CC 13 F1
  can0  RX - -  083   [8]  05 CC 00 00 00 00 00 00
  can0  RX - -  083   [8]  05 CC 00 00 00 04 13 F1
  can0  RX - -  083   [8]  05 CC 00 00 00 00 00 00
  can0  RX - -  083   [8]  05 CC 00 00 00 60 13 F1
  can0  RX - -  083   [8]  05 CC 00 00 00 60 13 F1
  can0  RX - -  083   [8]  05 CC 00 00 00 60 13 F1
  can0  RX - -  083   [8]  05 CC 00 00 00 0B 3B 00
  can0  RX - -  083   [8]  05 CC 00 00 00 F1 13 F1
  can0  RX - -  083   [8]  05 CC 00 00 00 F1 13 F1
  can0  RX - -  083   [8]  05 CC 00 00 00 F1 13 F1
  can0  RX - -  083   [8]  05 CC 00 00 00 00 00 00
  can0  RX - -  083   [8]  05 CC 00 00 00 10 13 F1
  can0  RX - -  083   [8]  05 CC 00 00 00 10 13 F1
  can0  RX - -  083   [8]  05 CC 00 00 00 10 13 F1
  can0  RX - -  083   [8]  05 CC 00 00 00 0B 3B 00
  can0  RX - -  083   [8]  05 CC 00 00 00 F1 13 F1
  can0  RX - -  083   [8]  05 CC 00 00 00 F1 13 F1
  can0  RX - -  083   [8]  05 CC 00 00 00 00 00 00
  can0  RX - -  083   [8]  05 CC 00 00 00 10 13 F1
  can0  RX - -  083   [8]  05 CC 00 00 00 10 13 F1
  can0  RX - -  083   [8]  05 CC 00 00 00 10 13 F1
  can0  RX - -  083   [8]  05 CC 00 00 00 08 DE 0B
  can0  RX - -  083   [8]  05 CC 00 00 00 2D 08 03
  can0  RX - -  083   [8]  05 CC 00 00 00 CC 13 F1
  can0  RX - -  083   [8]  05 CC 00 00 00 CC 13 F1
  can0  RX - -  083   [8]  05 CC 00 00 00 DD DF 00
  can0  RX - -  083   [8]  05 CC 00 00 00 08 13 F1
  can0  RX - -  083   [8]  05 CC 00 00 00 08 13 F1
  can0  RX - -  083   [8]  05 CC 00 00 00 08 13 F1
  can0  RX - -  083   [8]  05 CC 00 00 00 08 13 F1
  can0  RX - -  083   [8]  05 CC 00 00 00 08 13 F1
  can0  RX - -  083   [8]  05 CC 00 00 00 08 13 F1
  can0  RX - -  083   [8]  05 CC 00 00 00 08 13 F1
  can0  RX - -  083   [8]  05 CC 00 00 00 00 00 00
  can0  RX - -  083   [8]  05 CC 00 00 00 10 13 F1
  can0  RX - -  083   [8]  05 CC 00 00 00 10 13 F1
  can0  RX - -  083   [8]  05 CC 00 00 00 00 00 00
  can0  RX - -  083   [8]  05 CC 00 00 00 10 13 F1
  can0  RX - -  083   [8]  05 CC 00 00 00 10 13 F1
  can0  RX - -  083   [8]  05 CC 00 00 00 10 13 F1
  can0  RX - -  083   [8]  05 CC 00 00 00 3B 00 00
  can0  RX - -  083   [8]  05 CC 00 00 00 00 00 00
  can0  RX - -  083   [8]  05 CC 00 00 00 10 13 F1
  can0  RX - -  083   [8]  05 CC 00 00 00 10 13 F1
  can0  RX - -  083   [8]  05 CC 00 00 00 3B 00 00
  can0  RX - -  083   [8]  05 CC 00 00 00 3B 00 00
  can0  RX - -  083   [8]  05 CC 00 00 00 13 13 F1
  can0  RX - -  083   [8]  05 CC 00 00 00 13 13 F1
  can0  RX - -  083   [8]  05 CC 00 00 00 13 13 F1
  can0  RX - -  083   [8]  05 CC 00 00 00 13 13 F1
  can0  RX - -  083   [8]  05 CC 00 00 00 13 13 F1
  can0  RX - -  083   [8]  05 CC 00 00 00 13 13 F1
  can0  RX - -  083   [8]  05 CC 00 00 00 DD DF 00
  can0  RX - -  083   [8]  05 CC 00 00 00 08 13 F1
  can0  RX - -  083   [8]  05 CC 00 00 00 08 13 F1
  can0  RX - -  083   [8]  05 CC 00 00 00 08 13 F1
  can0  RX - -  083   [8]  05 CC 00 00 00 08 13 F1
  can0  RX - -  083   [8]  05 CC 00 00 00 08 13 F1
  can0  RX - -  083   [8]  05 CC 00 00 00 08 13 F1
  can0  RX - -  083   [8]  05 CC 00 00 00 08 13 F1
  can0  RX - -  083   [8]  05 CC 00 00 00 08 13 F1
  can0  RX - -  083   [8]  05 CC 00 00 00 00 00 00
  can0  RX - -  083   [8]  05 CC 00 00 00 00 13 F1
  can0  RX - -  083   [8]  05 CC 00 00 00 00 13 F1
  can0  RX - -  083   [8]  05 CC 00 00 00 00 13 F1
  can0  RX - -  083   [8]  05 CC 00 00 00 00 00 00
  can0  RX - -  083   [8]  05 CC 00 00 00 60 13 F1
  can0  RX - -  083   [8]  05 CC 00 00 00 60 13 F1
  can0  RX - -  083   [8]  05 CC 00 00 00 00 00 00
  can0  RX - -  083   [8]  05 CC 00 00 00 10 13 F1
  can0  RX - -  083   [8]  05 CC 00 00 00 10 13 F1
  can0  RX - -  083   [8]  05 CC 00 00 00 10 13 F1
  can0  RX - -  083   [8]  05 CC 00 00 00 3B 00 00
  can0  RX - -  083   [8]  05 CC 00 00 00 2D 08 03
  can0  RX - -  083   [8]  05 CC 00 00 00 CC 13 F1
  can0  RX - -  083   [8]  05 CC 00 00 00 CC 13 F1
  can0  RX - -  083   [8]  05 CC 00 00 00 CC 13 F1
  can0  RX - -  083   [8]  05 CC 00 00 00 CC 13 F1
  can0  RX - -  083   [8]  05 CC 00 00 00 CC 13 F1
  can0  RX - -  083   [8]  05 CC 00 00 00 13 F1 01
  can0  RX - -  083   [8]  05 CC 00 00 00 2D 08 03
  can0  RX - -  083   [8]  05 CC 00 00 00 CC 13 F1
  can0  RX - -  083   [8]  05 CC 00 00 00 CC 13 F1
  can0  RX - -  083   [8]  05 CC 00 00 00 DD DF 00
  can0  RX - -  083   [8]  05 CC 00 00 00 08 13 F1
  can0  RX - -  083   [8]  05 CC 00 00 00 08 13 F1
  can0  RX - -  083   [8]  05 CC 00 00 00 08 13 F1
  can0  RX - -  083   [8]  05 CC 00 00 00 08 13 F1
  can0  RX - -  083   [8]  05 CC 00 00 00 08 13 F1
  can0  RX - -  083   [8]  05 CC 00 00 00 08 13 F1
  can0  RX - -  083   [8]  05 CC 00 00 00 08 13 F1
  can0  RX - -  083   [8]  05 CC 00 00 00 00 00 00
  can0  RX - -  083   [8]  05 CC 00 00 00 10 13 F1
  can0  RX - -  083   [8]  05 CC 00 00 00 10 13 F1
  can0  RX - -  083   [8]  05 CC 00 00 00 10 13 F1
  can0  RX - -  083   [8]  05 CC 00 00 00 0B 3B 00
  can0  RX - -  083   [8]  05 CC 00 00 00 F1 13 F1
  can0  RX - -  083   [8]  05 CC 00 00 00 F1 13 F1
  can0  RX - -  083   [8]  05 CC 00 00 00 3B 00 00
  can0  RX - -  083   [8]  05 CC 00 00 00 00 00 00
  can0  RX - -  083   [8]  05 CC 00 00 00 10 13 F1
  can0  RX - -  083   [8]  05 CC 00 00 00 10 13 F1
  can0  RX - -  083   [8]  05 CC 00 00 00 0B 3B 00
  can0  RX - -  083   [8]  05 CC 00 00 00 F1 13 F1
  can0  RX - -  083   [8]  05 CC 00 00 00 F1 13 F1
  can0  RX - -  083   [8]  05 CC 00 00 00 F1 13 F1
  can0  RX - -  083   [8]  05 CC 00 00 00 00 00 00
  can0  RX - -  083   [8]  05 CC 00 00 00 04 13 F1
  can0  RX - -  083   [8]  05 CC 00 00 00 04 13 F1
  can0  RX - -  083   [8]  05 CC 00 00 00 04 13 F1
  can0  RX - -  083   [8]  05 CC 00 00 00 DE 0B 3B
  can0  RX - -  083   [8]  05 CC 00 00 00 2D 08 03
  can0  RX - -  083   [8]  05 CC 00 00 00 CC 13 F1
  can0  RX - -  083   [8]  05 CC 00 00 00 00 00 00
  can0  RX - -  083   [8]  05 CC 00 00 00 00 13 F1
  can0  RX - -  083   [8]  05 CC 00 00 00 00 13 F1
  can0  RX - -  083   [8]  05 CC 00 00 00 00 13 F1
  can0  RX - -  083   [8]  05 CC 00 00 00 07 DE 08
  can0  RX - -  083   [8]  05 CC 00 00 00 2D 13 F1
  can0  RX - -  083   [8]  05 CC 00 00 00 2D 13 F1
  can0  RX - -  083   [8]  05 CC 00 00 00 2D 13 F1
  can0  RX - -  083   [8]  05 CC 00 00 00 2D 08 03
  can0  RX - -  083   [8]  05 CC 00 00 00 CC 13 F1
  can0  RX - -  083   [8]  05 CC 00 00 00 CC 13 F1
  can0  RX - -  083   [8]  05 CC 00 00 00 CC 13 F1
  can0  RX - -  083   [8]  05 CC 00 00 00 CC 13 F1
  can0  RX - -  083   [8]  05 CC 00 00 00 CC 13 F1
  can0  RX - -  083   [8]  05 CC 00 00 00 F1 01 2D
  can0  RX - -  083   [8]  05 CC 00 00 00 DF 00 00
  can0  RX - -  083   [8]  05 CC 00 00 00 76 13 F1
  can0  RX - -  083   [8]  05 CC 00 00 00 76 13 F1
  can0  RX - -  083   [8]  05 CC 00 00 00 DD DF 00
  can0  RX - -  083   [8]  05 CC 00 00 00 08 13 F1
  can0  RX - -  083   [8]  05 CC 00 00 00 08 13 F1
  can0  RX - -  083   [8]  05 CC 00 00 00 08 13 F1
  can0  RX - -  083   [8]  05 CC 00 00 00 08 13 F1
  can0  RX - -  083   [8]  05 CC 00 00 00 08 13 F1
  can0  RX - -  083   [8]  05 CC 00 00 00 08 13 F1
  can0  RX - -  083   [8]  05 CC 00 00 00 08 13 F1
  can0  RX - -  083   [8]  05 CC 00 00 00 08 13 F1
  can0  RX - -  083   [8]  05 CC 00 00 00 00 00 00
  can0  RX - -  083   [8]  05 CC 00 00 00 00 13 F1
  can0  RX - -  083   [8]  05 CC 00 00 00 00 13 F1
  can0  RX - -  083   [8]  05 CC 00 00 00 00 13 F1
  can0  RX - -  083   [8]  05 CC 00 00 00 00 00 00
  can0  RX - -  083   [8]  05 CC 00 00 00 60 13 F1
  can0  RX - -  083   [8]  05 CC 00 00 00 60 13 F1
  can0  RX - -  083   [8]  05 CC 00 00 00 00 00 00
  can0  RX - -  083   [8]  05 CC 00 00 00 10 13 F1
  can0  RX - -  083   [8]  05 CC 00 00 00 10 13 F1
  can0  RX - -  083   [8]  05 CC 00 00 00 10 13 F1
  can0  RX - -  083   [8]  05 CC 00 00 00 3B 00 00
  can0  RX - -  083   [8]  05 CC 00 00 00 2D 08 03
  can0  RX - -  083   [8]  05 CC 00 00 00 CC 13 F1
  can0  RX - -  083   [8]  05 CC 00 00 00 CC 13 F1
  can0  RX - -  083   [8]  05 CC 00 00 00 CC 13 F1
  can0  RX - -  083   [8]  05 CC 00 00 00 CC 13 F1
  can0  RX - -  083   [8]  05 CC 00 00 00 CC 13 F1
  can0  RX - -  083   [8]  05 CC 00 00 00 13 F1 01
  can0  RX - -  083   [8]  05 CC 00 00 00 2D 08 03
  can0  RX - -  083   [8]  05 CC 00 00 00 CC 13 F1
  can0  RX - -  083   [8]  05 CC 00 00 00 CC 13 F1
  can0  RX - -  083   [8]  05 CC 00 00 00 CC 13 F1
  can0  RX - -  083   [8]  05 CC 00 00 00 CC 13 F1
  can0  RX - -  083   [8]  05 CC 00 00 00 CC 13 F1
  can0  RX - -  083   [8]  05 CC 00 00 00 CC 13 F1
  can0  RX - -  083   [8]  05 CC 00 00 00 CC 13 F1
  can0  RX - -  083   [8]  05 CC 00 00 00 CC 13 F1
  can0  RX - -  083   [8]  05 CC 00 00 00 CC 13 F1
  can0  RX - -  083   [8]  05 CC 00 00 00 DD DF 00
  can0  RX - -  083   [8]  05 CC 00 00 00 08 13 F1
  can0  RX - -  083   [8]  05 CC 00 00 00 08 13 F1
  can0  RX - -  083   [8]  05 CC 00 00 00 08 13 F1
  can0  RX - -  083   [8]  05 CC 00 00 00 08 13 F1
  can0  RX - -  083   [8]  05 CC 00 00 00 08 13 F1
  can0  RX - -  083   [8]  05 CC 00 00 00 08 13 F1
  can0  RX - -  083   [8]  05 CC 00 00 00 08 13 F1
  can0  RX - -  083   [8]  05 CC 00 00 00 3B 00 00
  can0  RX - -  083   [8]  05 CC 00 00 00 00 00 00
  can0  RX - -  083   [8]  05 CC 00 00 00 10 13 F1
  can0  RX - -  083   [8]  05 CC 00 00 00 10 13 F1
  can0  RX - -  083   [8]  05 CC 00 00 00 0B 3B 00
  can0  RX - -  083   [8]  05 CC 00 00 00 F1 13 F1
  can0  RX - -  083   [8]  05 CC 00 00 00 F1 13 F1
  can0  RX - -  083   [8]  05 CC 00 00 00 F1 13 F1
  can0  RX - -  083   [8]  05 CC 00 00 00 00 00 00
  can0  RX - -  083   [8]  05 CC 00 00 00 04 13 F1
  can0  RX - -  083   [8]  05 CC 00 00 00 04 13 F1
  can0  RX - -  083   [8]  05 CC 00 00 00 04 13 F1
  can0  RX - -  083   [8]  05 CC 00 00 00 DE 0B 3B
  can0  RX - -  083   [8]  05 CC 00 00 00 2D 08 03
  can0  RX - -  083   [8]  05 CC 00 00 00 CC 13 F1
  can0  RX - -  083   [8]  05 CC 00 00 00 CC 13 F1
  can0  RX - -  083   [8]  05 CC 00 00 00 DD DF 00
  can0  RX - -  083   [8]  05 CC 00 00 00 08 13 F1
  can0  RX - -  083   [8]  05 CC 00 00 00 08 13 F1
  can0  RX - -  083   [8]  05 CC 00 00 00 08 13 F1
  can0  RX - -  083   [8]  05 CC 00 00 00 08 13 F1
  can0  RX - -  083   [8]  05 CC 00 00 00 08 13 F1
  can0  RX - -  083   [8]  05 CC 00 00 00 08 13 F1
  can0  RX - -  083   [8]  05 CC 00 00 00 08 DE 0B
  can0  RX - -  083   [8]  05 CC 00 00 00 00 00 00
  can0  RX - -  083   [8]  05 CC 00 00 00 04 13 F1
  can0  RX - -  083   [8]  05 CC 00 00 00 04 13 F1
  can0  RX - -  083   [8]  05 CC 00 00 00 00 00 00
  can0  RX - -  083   [8]  05 CC 00 00 00 10 13 F1
  can0  RX - -  083   [8]  05 CC 00 00 00 10 13 F1
  can0  RX - -  083   [8]  05 CC 00 00 00 10 13 F1
  can0  RX - -  083   [8]  05 CC 00 00 00 00 00 00
  can0  RX - -  083   [8]  05 CC 00 00 00 00 13 F1
  can0  RX - -  083   [8]  05 CC 00 00 00 00 13 F1
  can0  RX - -  083   [8]  05 CC 00 00 00 00 00 00
  can0  RX - -  083   [8]  05 CC 00 00 00 04 13 F1
  can0  RX - -  083   [8]  05 CC 00 00 00 04 13 F1
  can0  RX - -  083   [8]  05 CC 00 00 00 04 13 F1
  can0  RX - -  083   [8]  05 CC 00 00 00 0B 3B 00
  can0  RX - -  083   [8]  05 CC 00 00 00 F1 13 F1
  can0  RX - -  083   [8]  05 CC 00 00 00 F1 13 F1
  can0  RX - -  083   [8]  05 CC 00 00 00 F1 13 F1
  can0  RX - -  083   [8]  05 CC 00 00 00 00 00 00
  can0  RX - -  083   [8]  05 CC 00 00 00 00 13 F1
  can0  RX - -  083   [8]  05 CC 00 00 00 00 13 F1
  can0  RX - -  083   [8]  05 CC 00 00 00 00 13 F1
  can0  RX - -  083   [8]  05 CC 00 00 00 00 00 00
  can0  RX - -  083   [8]  05 CC 00 00 00 60 13 F1
  can0  RX - -  083   [8]  05 CC 00 00 00 60 13 F1
  can0  RX - -  083   [8]  05 CC 00 00 00 00 00 00
  can0  RX - -  083   [8]  05 CC 00 00 00 10 13 F1
  can0  RX - -  083   [8]  05 CC 00 00 00 10 13 F1
  can0  RX - -  083   [8]  05 CC 00 00 00 10 13 F1
  can0  RX - -  083   [8]  05 CC 00 00 00 3B 00 00
  can0  RX - -  083   [8]  05 CC 00 00 00 2D 08 03
  can0  RX - -  083   [8]  05 CC 00 00 00 CC 13 F1
  can0  RX - -  083   [8]  05 CC 00 00 00 CC 13 F1
  can0  RX - -  083   [8]  05 CC 00 00 00 CC 13 F1
  can0  RX - -  083   [8]  05 CC 00 00 00 CC 13 F1
  can0  RX - -  083   [8]  05 CC 00 00 00 CC 13 F1
  can0  RX - -  083   [8]  05 CC 00 00 00 CC 13 F1
  can0  RX - -  083   [8]  05 CC 00 00 00 CC 13 F1
  can0  RX - -  083   [8]  05 CC 00 00 00 CC 13 F1
  can0  RX - -  083   [8]  05 CC 00 00 00 00 00 00
  can0  RX - -  083   [8]  05 CC 00 00 00 60 13 F1
  can0  RX - -  083   [8]  05 CC 00 00 00 60 13 F1
  can0  RX - -  083   [8]  05 CC 00 00 00 0B 3B 00
  can0  RX - -  083   [8]  05 CC 00 00 00 F1 13 F1
  can0  RX - -  083   [8]  05 CC 00 00 00 F1 13 F1
  can0  RX - -  083   [8]  05 CC 00 00 00 F1 13 F1
  can0  RX - -  083   [8]  05 CC 00 00 00 00 00 00
  can0  RX - -  083   [8]  05 CC 00 00 00 10 13 F1
  can0  RX - -  083   [8]  05 CC 00 00 00 10 13 F1
  can0  RX - -  083   [8]  05 CC 00 00 00 10 13 F1
  can0  RX - -  083   [8]  05 CC 00 00 00 0B 3B 00
  can0  RX - -  083   [8]  05 CC 00 00 00 F1 13 F1
  can0  RX - -  083   [8]  05 CC 00 00 00 F1 13 F1
  can0  RX - -  083   [8]  05 CC 00 00 00 F1 13 F1
  can0  RX - -  083   [8]  05 CC 00 00 00 00 00 07
  can0  RX - -  083   [8]  05 CC 00 00 00 02 13 F1
  can0  TX - -  070   [8]  05 CC 00 00 00 00 00 00
  can0  TX - -  090   [8]  05 CC 00 00 00 00 00 00
  can0  TX - -  080   [8]  05 CC 00 00 00 00 00 00
  can0  TX - -  082   [8]  05 CC 00 00 00 BF 00 00
  can0  RX - -  083   [8]  05 CC 01 00 00 00 00 00
  can0  TX - -  082   [8]  05 CC 00 00 00 00 00 00
  can0  RX - -  083   [8]  05 CC 01 00 00 0B 3B 00
  can0  TX - -  082   [8]  05 CC 00 00 00 3F 00 00
  can0  RX - -  083   [8]  05 CC 01 00 00 0B 3B 00
  can0  TX - -  071   [8]  05 CC 00 00 00 00 00 00
  can0  TX - -  091   [8]  05 CC 00 00 00 00 00 00
  can0  TX - -  081   [8]  05 CC 00 00 00 00 00 00
  can0  RX - -  083   [8]  05 CC 00 00 00 08 13 F1
  can0  RX - -  083   [8]  05 CC 00 00 00 08 13 F1
  can0  RX - -  083   [8]  05 CC 00 00 00 00 00 00
  can0  RX - -  083   [8]  05 CC 00 00 00 04 13 F1
  can0  RX - -  083   [8]  05 CC 00 00 00 04 13 F1
  can0  RX - -  083   [8]  05 CC 00 00 00 04 13 F1
  can0  RX - -  083   [8]  05 CC 00 00 00 0B 3B 00
  can0  RX - -  083   [8]  05 CC 00 00 00 F1 13 F1
  can0  RX - -  083   [8]  05 CC 00 00 00 F1 13 F1
  can0  RX - -  083   [8]  05 CC 00 00 00 F1 13 F1
  can0  RX - -  083   [8]  05 CC 00 00 00 00 00 00
  can0  RX - -  083   [8]  05 CC 00 00 00 60 13 F1
  can0  RX - -  083   [8]  05 CC 00 00 00 60 13 F1
  can0  RX - -  083   [8]  05 CC 00 00 00 0B 3B 00
  can0  RX - -  083   [8]  05 CC 00 00 00 F1 13 F1
  can0  RX - -  083   [8]  05 CC 00 00 00 F1 13 F1
  can0  RX - -  083   [8]  05 CC 00 00 00 F1 13 F1
  can0  RX - -  083   [8]  05 CC 00 00 00 00 00 00
  can0  RX - -  083   [8]  05 CC 00 00 00 04 13 F1
  can0  RX - -  083   [8]  05 CC 00 00 00 04 13 F1
  can0  RX - -  083   [8]  05 CC 00 00 00 04 13 F1
  can0  RX - -  083   [8]  05 CC 00 00 00 0B 3B 00
  can0  RX - -  083   [8]  05 CC 00 00 00 F1 13 F1
  can0  RX - -  083   [8]  05 CC 00 00 00 F1 13 F1
  can0  RX - -  083   [8]  05 CC 00 00 00 F1 13 F1
  can0  RX - -  083   [8]  05 CC 00 00 00 DF 00 00
  can0  RX - -  083   [8]  05 CC 00 00 00 76 13 F1
  can0  RX - -  083   [8]  05 CC 00 00 00 76 13 F1
  can0  RX - -  083   [8]  05 CC 00 00 00 76 13 F1
  can0  RX - -  083   [8]  05 CC 00 00 00 76 13 F1
  can0  RX - -  083   [8]  05 CC 00 00 00 76 13 F1
  can0  RX - -  083   [8]  05 CC 00 00 00 76 13 F1
  can0  RX - -  083   [8]  05 CC 00 00 00 DE 08 DE
  can0  RX - -  083   [8]  05 CC 00 00 00 00 00 00
  can0  RX - -  083   [8]  05 CC 00 00 00 04 13 F1
  can0  RX - -  083   [8]  05 CC 00 00 00 04 13 F1
  can0  RX - -  083   [8]  05 CC 00 00 00 00 00 00
  can0  RX - -  083   [8]  05 CC 00 00 00 60 13 F1
  can0  RX - -  083   [8]  05 CC 00 00 00 60 13 F1
  can0  RX - -  083   [8]  05 CC 00 00 00 60 13 F1
  can0  RX - -  083   [8]  05 CC 00 00 00 00 00 00
  can0  RX - -  083   [8]  05 CC 00 00 00 60 13 F1
  can0  RX - -  083   [8]  05 CC 00 00 00 60 13 F1
  can0  RX - -  083   [8]  05 CC 00 00 00 60 13 F1
  can0  RX - -  083   [8]  05 CC 00 00 00 0B 3B 00
  can0  RX - -  083   [8]  05 CC 00 00 00 F1 13 F1
  can0  RX - -  083   [8]  05 CC 00 00 00 F1 13 F1
  can0  RX - -  083   [8]  05 CC 00 00 00 0B 3B 00
  can0  RX - -  083   [8]  05 CC 00 00 00 F1 13 F1
  can0  RX - -  083   [8]  05 CC 00 00 00 F1 13 F1
  can0  RX - -  083   [8]  05 CC 00 00 00 F1 13 F1
  can0  RX - -  083   [8]  05 CC 00 00 00 3B 00 00
  can0  RX - -  083   [8]  05 CC 00 00 00 0B 3B 00
  can0  RX - -  083   [8]  05 CC 00 00 00 F1 13 F1
  can0  RX - -  083   [8]  05 CC 00 00 00 F1 13 F1
  can0  RX - -  083   [8]  05 CC 00 00 00 00 00 00
  can0  RX - -  083   [8]  05 CC 00 00 00 10 13 F1
  can0  RX - -  083   [8]  05 CC 00 00 00 10 13 F1
